1. Write register 0x3A with value 0x5A
2. Write register 0x7F with value 0x00
3. Write register 0x40 with value 0x80
4. Write register 0x7F with value 0x14
5. Write register 0x4D with value 0x00
6. Write register 0x53 with value 0x0D
7. Write register 0x4B with value 0x20
8. Write register 0x42 with value 0xBC
9. Write register 0x43 with value 0x74
10. Write register 0x58 with value 0x4C
11. Write register 0x79 with value 0x00
12. Write register 0x7F with value 0x0E
13. Write register 0x54 with value 0x04
14. Write register 0x7F with value 0x0E
15. Write register 0x55 with value 0x0D
16. Write register 0x58 with value 0xD5
17. Write register 0x56 with value 0xFB
18. Write register 0x57 with value 0xEB
19. Write register 0x7F with value 0x15
20. Read register 0x58
If register 0x58 Bit [7] = 0
a. Write register 0x58 with value 0x04
b. Write register 0x57 with value 0x80
c. Continue to Step 21
If register 0x58 Bit [7] = 1
a. Write register 0x58 with value 0x84
b. Write register 0x57 with value 0x00
c. Continue to Step 21
21. Write register 0x7F with value 0x07
22. Write register 0x40 with value 0x43
23. Write register 0x7F with value 0x13
24. Write register 0x49 with value 0x20
25. Write register 0x7F with value 0x14
26. Write register 0x54 with value 0x02
27. Write register 0x7F with value 0x15
28. Write register 0x60 with value 0x00
29. Write register 0x7F with value 0x06
30. Write register 0x74 with value 0x50
31. Write register 0x7B with value 0x02
32. Write register 0x7F with value 0x00
33. Write register 0x64 with value 0x74
34. Write register 0x65 with value 0x03
35. Write register 0x72 with value 0x0E
36. Write register 0x73 with value 0x00
37. Write register 0x7F with value 0x14
38. Write register 0x61 with value 0x3E
39. Write register 0x62 with value 0x1E
40. Write register 0x63 with value 0x1E
41. Write register 0x7F with value 0x15
42. Write register 0x69 with value 0x1E
43. Write register 0x7F with value 0x07
44. Write register 0x40 with value 0x40
45. Write register 0x7F with value 0x00
46. Write register 0x61 with value 0x00
47. Write register 0x7F with value 0x15
48. Write register 0x63 with value 0x00
49. Write register 0x62 with value 0x00
50. Write register 0x7F with value 0x00
51. Write register 0x61 with value 0xAD
52. Write register 0x7F with value 0x15
53. Write register 0x5D with value 0x2C
54. Write register 0x5E with value 0xC4
55. Delay 100ms
56. Write register 0x5D with value 0x04
57. Write register 0x5E with value 0xEC
58. Write register 0x7F with value 0x05
59. Write register 0x42 with value 0x48
60. Write register 0x43 with value 0xE7
61. Write register 0x7F with value 0x06
62. Write register 0x71 with value 0x03
63. Write register 0x7F with value 0x09
64. Write register 0x60 with value 0x1C
65. Write register 0x61 with value 0x1E
66. Write register 0x62 with value 0x02
67. Write register 0x63 with value 0x04
68. Write register 0x64 with value 0x1E
69. Write register 0x65 with value 0x1F
70. Write register 0x66 with value 0x01
71. Write register 0x67 with value 0x02
Version 0.83 | 24 Nov 2023 | 21016EN
PixArt Imaging Inc. https://www.pixart.com
All rights reserved. Any portion in this paper shall not be reproduced, copied, or transformed to any other forms without per mission.
36PAA5160E1-Q Product Datasheet
Optical Tracking Chip
72. Write register 0x68 with value 0x02
73. Write register 0x69 with value 0x01
74. Write register 0x6A with value 0x1F
75. Write register 0x6B with value 0x1E
76. Write register 0x6C with value 0x04
77. Write register 0x6D with value 0x02
78. Write register 0x6E with value 0x1E
79. Write register 0x6F with value 0x1C
80. Write register 0x7F with value 0x05
81. Write register 0x45 with value 0x94
82. Write register 0x45 with value 0x14
83. Write register 0x44 with value 0x45
84. Write register 0x45 with value 0x17
85. Write register 0x7F with value 0x09
86. Write register 0x47 with value 0x4F
87. Write register 0x4F with value 0x00
88. Write register 0x52 with value 0x04
89. Write register 0x7F with value 0x0C
90. Write register 0x4E with value 0x00
91. Write register 0x5B with value 0x00
92. Write register 0x7F with value 0x0D
93. Write register 0x71 with value 0x92
94. Write register 0x70 with value 0x07
95. Write register 0x73 with value 0x92
96. Write register 0x72 with value 0x07
97. Write register 0x7F with value 0x00
98. Write register 0x5B with value 0x20
99. Write register 0x48 with value 0x13
100. Write register 0x49 with value 0x00
101. Write register 0x4A with value 0x13
102. Write register 0x4B with value 0x00
103. Write register 0x47 with value 0x01
104. Write register 0x54 with value 0x55
105. Write register 0x5A with value 0x50
106. Write register 0x66 with value 0x03
107. Write register 0x67 with value 0x00
108. Write register 0x7F with value 0x07
109. Write register 0x40 with value 0x43
110. Write register 0x7F with value 0x05
111. Write register 0x4D with value 0x00
112. Write register 0x6D with value 0x96
113. Write register 0x55 with value 0x62
114. Write register 0x59 with value 0x21
115. Write register 0x5F with value 0xD8
116. Write register 0x6A with value 0x22
117. Write register 0x7F with value 0x07
118. Write register 0x42 with value 0x30
119. Write register 0x43 with value 0x00
120. Write register 0x7F with value 0x06
121. Write register 0x4C with value 0x01
122. Write register 0x54 with value 0x02
123. Write register 0x62 with value 0x01
124. Write register 0x7F with value 0x09
125. Write register 0x41 with value 0x01
126. Write register 0x4F with value 0x00
127. Write register 0x7F with value 0x0A
128. Write register 0x4C with value 0x18
129. Write register 0x51 with value 0x8F
130. Write register 0x7F with value 0x07
131. Write register 0x40 with value 0x40
132. Write register 0x7F with value 0x00
133. Write register 0x40 with value 0x80
134. Write register 0x7F with value 0x05
135. Write register 0x4d with value 0x01
136. Write register 0x7f with value 0x06
137. Write register 0x54 with value 0x01
138. Write register 0x62 with value 0x01
139. Write register 0x7f with value 0x09
140. Write register 0x40 with value 0x03
141. Write register 0x44 with value 0x08
142. Write register 0x4f with value 0x08
143. Write register 0x7f with value 0x0A
144. Write register 0x51 with value 0x8E
145. Write register 0x7f with value 0x00
146. Write register 0x66 with value 0x11
147. Write register 0x67 with value 0x08
